! Anritsu VNA Master:                           Model: MS2034B
! SN:                                  1324090
! /card0/usr/3x3-809p55mhz.s2p
! Existing Calibration Information:
! TYPE:                         Current Settings,       Active Cal Settings
! TIME:             	   07/17/2014 10:10:50 AM,    05/16/2014 07:31:05 AM
! INTERNAL TEMP:    	                   46.0 C,                    49.0 C
! # POINTS:         	                     4001,                       401
! START FREQ:       	              809.300 MHz,               500.000 kHz
! STOP FREQ:        	              809.800 MHz,                 4.000 GHz
! SOURCE POWER:     	                      Low,                      High
! IFBW:             	                   100 Hz,                    100 Hz
! AVG FACTOR:       	                       1 ,                        1 
! REF PLANE 1:      	                18.7717 m,                      0 mm
! REF PLANE 2:      	                     0 mm,                      0 mm
! CAL TYPE:         	             Response S21,              Response S21
! CAL METHOD:       	                     SOLT,                      SOLT
! CAL LINE TYPE:    	                     Coax,                      Coax
! DUT PORT 1:       	                   SMA(F),                    SMA(F)
! DUT PORT 2:       	                N-Conn(M),                 N-Conn(M)
! CAL STATUS:       	                      OFF,                        --
# GHZ S MA R 50.0
! FREQ.GHZ       S11M         S11A         S21M         S21A         S12M         S12A         S22M         S22A
  0.809300000  3.262650E-02    1.397083  1.997428E+00 -141.411911  1.000000E+00    0.000000  1.000000E+00    0.000000
  0.809300125  3.364332E-02    0.209625  1.992799E+00 -141.457977  1.000000E+00    0.000000  1.000000E+00    0.000000
  0.809300250  3.390830E-02    1.754617  1.992419E+00 -141.296143  1.000000E+00    0.000000  1.000000E+00    0.000000
  0.809300375  3.365711E-02    1.082588  1.996929E+00 -141.290634  1.000000E+00    0.000000  1.000000E+00    0.000000
  0.809300500  3.304514E-02   -0.710941  1.990923E+00 -141.407959  1.000000E+00    0.000000  1.000000E+00    0.000000
  0.809300625  3.386214E-02   -0.166308  1.994840E+00 -141.443359  1.000000E+00    0.000000  1.000000E+00    0.000000
  0.809300750  3.348573E-02   -1.254971  1.990142E+00 -141.575836  1.000000E+00    0.000000  1.000000E+00    0.000000
  0.809300875  3.370631E-02    1.651839  1.990929E+00 -141.535736  1.000000E+00    0.000000  1.000000E+00    0.000000
  0.809301000  3.398016E-02   -0.549713  1.987510E+00 -141.312775  1.000000E+00    0.000000  1.000000E+00    0.000000
  0.809301125  3.355340E-02    1.678783  1.997434E+00 -141.245972  1.000000E+00    0.000000  1.000000E+00    0.000000
  0.809301250  3.234209E-02    2.780980  1.991292E+00 -141.234009  1.000000E+00    0.000000  1.000000E+00    0.000000
  0.809301375  3.365362E-02   -0.375763  1.985204E+00 -141.101303  1.000000E+00    0.000000  1.000000E+00    0.000000
  0.809301500  3.342841E-02    2.916936  1.988983E+00 -141.221603  1.000000E+00    0.000000  1.000000E+00    0.000000
  0.809301625  3.303520E-02    0.997277  1.980931E+00 -141.116776  1.000000E+00    0.000000  1.000000E+00    0.000000
  0.809301750  3.350699E-02    0.130554  1.978633E+00 -141.348419  1.000000E+00    0.000000  1.000000E+00    0.000000
  0.809301875  3.419856E-02    1.228917  1.972215E+00 -141.350357  1.000000E+00    0.000000  1.000000E+00    0.000000
  0.809302000  3.245984E-02    3.500025  1.959587E+00 -141.363571  1.000000E+00    0.000000  1.000000E+00    0.000000
  0.809302125  3.381632E-02    0.423827  1.973547E+00 -141.279755  1.000000E+00    0.000000  1.000000E+00    0.000000
  0.809302250  3.328817E-02    1.934572  1.973747E+00 -141.411911  1.000000E+00    0.000000  1.000000E+00    0.000000
  0.809302375  3.345899E-02    1.145718  1.980051E+00 -141.315659  1.000000E+00    0.000000  1.000000E+00    0.000000
  0.809302500  3.386537E-02    0.387641  1.979527E+00 -141.434296  1.000000E+00    0.000000  1.000000E+00    0.000000
  0.809302625  3.386207E-02    1.615992  1.977957E+00 -141.283417  1.000000E+00    0.000000  1.000000E+00    0.000000
  0.809302750  3.355225E-02    1.402133  1.981926E+00 -141.396042  1.000000E+00    0.000000  1.000000E+00    0.000000
  0.809302875  3.312004E-02    1.958365  1.987404E+00 -141.448700  1.000000E+00    0.000000  1.000000E+00    0.000000
  0.809303000  3.415744E-02    2.167570  1.983216E+00 -141.326691  1.000000E+00    0.000000  1.000000E+00    0.000000
  0.809303125  3.270352E-02    3.797876  1.984392E+00 -141.342041  1.000000E+00    0.000000  1.000000E+00    0.000000
  0.809303250  3.326388E-02    1.122275  1.983086E+00 -141.458267  1.000000E+00    0.000000  1.000000E+00    0.000000
  0.809303375  3.430769E-02    3.841636  1.983140E+00 -141.386353  1.000000E+00    0.000000  1.000000E+00    0.000000
  0.809303500  3.287252E-02    2.053622  1.985603E+00 -141.384766  1.000000E+00    0.000000  1.000000E+00    0.000000
  0.809303625  3.351685E-02    1.762511  1.983745E+00 -141.258224  1.000000E+00    0.000000  1.000000E+00    0.000000
  0.809303750  3.259567E-02    2.373637  1.986648E+00 -141.288437  1.000000E+00    0.000000  1.000000E+00    0.000000
  0.809303875  3.335623E-02    1.499982  1.988639E+00 -141.628616  1.000000E+00    0.000000  1.000000E+00    0.000000
  0.809304000  3.486165E-02    2.150211  1.986512E+00 -141.637802  1.000000E+00    0.000000  1.000000E+00    0.000000
  0.809304125  3.306628E-02    1.956678  1.985446E+00 -141.661301  1.000000E+00    0.000000  1.000000E+00    0.000000
  0.809304250  3.248278E-02    1.023506  1.992667E+00 -141.741882  1.000000E+00    0.000000  1.000000E+00    0.000000
  0.809304375  3.311323E-02   -0.430596  1.999426E+00 -141.562317  1.000000E+00    0.000000  1.000000E+00    0.000000
  0.809304500  3.341673E-02    0.745345  1.991881E+00 -141.732468  1.000000E+00    0.000000  1.000000E+00    0.000000
  0.809304625  3.342755E-02    0.097011  1.998657E+00 -141.692184  1.000000E+00    0.000000  1.000000E+00    0.000000
  0.809304750  3.350937E-02    2.798537  1.999473E+00 -141.661682  1.000000E+00    0.000000  1.000000E+00    0.000000
  0.809304875  3.436328E-02    3.018708  1.990005E+00 -141.617889  1.000000E+00    0.000000  1.000000E+00    0.000000
  0.809305000  3.486019E-02    0.581012  1.990581E+00 -141.698563  1.000000E+00    0.000000  1.000000E+00    0.000000
  0.809305125  3.394729E-02    0.305962  1.990457E+00 -141.662704  1.000000E+00    0.000000  1.000000E+00    0.000000
  0.809305250  3.378819E-02    0.190558  1.991155E+00 -141.680435  1.000000E+00    0.000000  1.000000E+00    0.000000
  0.809305375  3.323282E-02    2.530899  1.989168E+00 -141.751526  1.000000E+00    0.000000  1.000000E+00    0.000000
  0.809305500  3.460012E-02    0.204688  1.991382E+00 -141.798080  1.000000E+00    0.000000  1.000000E+00    0.000000
  0.809305625  3.185808E-02    1.397974  1.988934E+00 -141.884033  1.000000E+00    0.000000  1.000000E+00    0.000000
  0.809305750  3.284559E-02    0.313824  1.988397E+00 -141.785751  1.000000E+00    0.000000  1.000000E+00    0.000000
  0.809305875  3.317868E-02    0.122384  1.996387E+00 -141.749695  1.000000E+00    0.000000  1.000000E+00    0.000000
  0.809306000  3.328341E-02   -0.770378  1.999453E+00 -141.729889  1.000000E+00    0.000000  1.000000E+00    0.000000
  0.809306125  3.421617E-02    0.936109  1.995616E+00 -141.731857  1.000000E+00    0.000000  1.000000E+00    0.000000
  0.809306250  3.255813E-02    2.658233  1.990240E+00 -141.573669  1.000000E+00    0.000000  1.000000E+00    0.000000
  0.809306375  3.288274E-02    5.073694  1.988896E+00 -141.597000  1.000000E+00    0.000000  1.000000E+00    0.000000
  0.809306500  3.379076E-02    2.748052  1.992434E+00 -141.686768  1.000000E+00    0.000000  1.000000E+00    0.000000
  0.809306625  3.396417E-02    2.855362  1.987618E+00 -141.583603  1.000000E+00    0.000000  1.000000E+00    0.000000
  0.809306750  3.334431E-02    4.116240  1.994213E+00 -141.591599  1.000000E+00    0.000000  1.000000E+00    0.000000
  0.809306875  3.340220E-02    2.416586  1.995729E+00 -141.564911  1.000000E+00    0.000000  1.000000E+00    0.000000
  0.809307000  3.323003E-02    2.619585  1.991983E+00 -141.706924  1.000000E+00    0.000000  1.000000E+00    0.000000
  0.809307125  3.393811E-02    3.427624  1.991492E+00 -141.487610  1.000000E+00    0.000000  1.000000E+00    0.000000
  0.809307250  3.274301E-02    2.469384  1.986678E+00 -141.634979  1.000000E+00    0.000000  1.000000E+00    0.000000
  0.809307375  3.401598E-02    3.492666  1.996197E+00 -141.698212  1.000000E+00    0.000000  1.000000E+00    0.000000
  0.809307500  3.414824E-02    2.462792  1.998598E+00 -141.661972  1.000000E+00    0.000000  1.000000E+00    0.000000
  0.809307625  3.371667E-02    3.665543  1.993058E+00 -141.509094  1.000000E+00    0.000000  1.000000E+00    0.000000
  0.809307750  3.278010E-02    1.407779  1.987773E+00 -141.641571  1.000000E+00    0.000000  1.000000E+00    0.000000
  0.809307875  3.449020E-02    3.542497  1.990491E+00 -141.664215  1.000000E+00    0.000000  1.000000E+00    0.000000
  0.809308000  3.430131E-02    3.140526  1.992606E+00 -141.600830  1.000000E+00    0.000000  1.000000E+00    0.000000
  0.809308125  3.466621E-02    3.099474  1.988723E+00 -141.654785  1.000000E+00    0.000000  1.000000E+00    0.000000
  0.809308250  3.341822E-02    2.863458  1.986225E+00 -141.818283  1.000000E+00    0.000000  1.000000E+00    0.000000
  0.809308375  3.370199E-02    4.401459  1.988268E+00 -141.496536  1.000000E+00    0.000000  1.000000E+00    0.000000
  0.809308500  3.417162E-02    3.513359  1.986407E+00 -141.694626  1.000000E+00    0.000000  1.000000E+00    0.000000
  0.809308625  3.261407E-02    1.402303  1.986824E+00 -141.818695  1.000000E+00    0.000000  1.000000E+00    0.000000
  0.809308750  3.363000E-02    2.745472  1.988685E+00 -141.689178  1.000000E+00    0.000000  1.000000E+00    0.000000
  0.809308875  3.299529E-02    1.416763  1.987176E+00 -141.975388  1.000000E+00    0.000000  1.000000E+00    0.000000
  0.809309000  3.353959E-02    1.250288  1.991885E+00 -142.009018  1.000000E+00    0.000000  1.000000E+00    0.000000
  0.809309125  3.299025E-02    1.561366  1.993518E+00 -142.059158  1.000000E+00    0.000000  1.000000E+00    0.000000
  0.809309250  3.304020E-02    1.188020  1.985666E+00 -142.045685  1.000000E+00    0.000000  1.000000E+00    0.000000
  0.809309375  3.265763E-02    0.922153  1.981717E+00 -142.073593  1.000000E+00    0.000000  1.000000E+00    0.000000
  0.809309500  3.308230E-02    0.809866  1.984634E+00 -141.990952  1.000000E+00    0.000000  1.000000E+00    0.000000
  0.809309625  3.314733E-02    0.429289  1.982452E+00 -142.190826  1.000000E+00    0.000000  1.000000E+00    0.000000
  0.809309750  3.347279E-02    1.305691  1.984710E+00 -142.091873  1.000000E+00    0.000000  1.000000E+00    0.000000
  0.809309875  3.315281E-02    0.425391  1.984928E+00 -142.191483  1.000000E+00    0.000000  1.000000E+00    0.000000
  0.809310000  3.429552E-02    2.510486  1.986337E+00 -141.996033  1.000000E+00    0.000000  1.000000E+00    0.000000
  0.809310125  3.260005E-02    3.015814  1.986422E+00 -141.992432  1.000000E+00    0.000000  1.000000E+00    0.000000
  0.809310250  3.321757E-02    0.840066  1.984593E+00 -142.125824  1.000000E+00    0.000000  1.000000E+00    0.000000
  0.809310375  3.338550E-02   -0.005306  1.984971E+00 -142.004776  1.000000E+00    0.000000  1.000000E+00    0.000000
  0.809310500  3.356959E-02    1.729227  1.986954E+00 -142.175476  1.000000E+00    0.000000  1.000000E+00    0.000000
  0.809310625  3.451597E-02    0.491924  1.992285E+00 -142.357269  1.000000E+00    0.000000  1.000000E+00    0.000000
  0.809310750  3.347344E-02    0.326932  1.981241E+00 -142.125168  1.000000E+00    0.000000  1.000000E+00    0.000000
  0.809310875  3.388849E-02    1.872445  1.984642E+00 -142.133881  1.000000E+00    0.000000  1.000000E+00    0.000000
  0.809311000  3.111818E-02    1.472851  1.983036E+00 -142.180862  1.000000E+00    0.000000  1.000000E+00    0.000000
  0.809311125  3.385850E-02    0.462761  1.987780E+00 -142.277451  1.000000E+00    0.000000  1.000000E+00    0.000000
  0.809311250  3.354086E-02    3.986571  1.987024E+00 -142.000153  1.000000E+00    0.000000  1.000000E+00    0.000000
  0.809311375  3.286644E-02    2.241189  1.988339E+00 -141.776718  1.000000E+00    0.000000  1.000000E+00    0.000000
  0.809311500  3.349003E-02    4.326268  1.988829E+00 -142.035660  1.000000E+00    0.000000  1.000000E+00    0.000000
  0.809311625  3.345379E-02    3.780324  1.989174E+00 -142.135406  1.000000E+00    0.000000  1.000000E+00    0.000000
  0.809311750  3.408294E-02    4.005181  1.989846E+00 -141.933167  1.000000E+00    0.000000  1.000000E+00    0.000000
  0.809311875  3.446966E-02    4.709069  1.990485E+00 -141.870041  1.000000E+00    0.000000  1.000000E+00    0.000000
  0.809312000  3.248102E-02    3.586691  1.995631E+00 -141.985168  1.000000E+00    0.000000  1.000000E+00    0.000000
  0.809312125  3.387425E-02    5.106592  1.995200E+00 -141.971130  1.000000E+00    0.000000  1.000000E+00    0.000000
  0.809312250  3.383301E-02    3.500160  1.999416E+00 -142.015762  1.000000E+00    0.000000  1.000000E+00    0.000000
  0.809312375  3.374042E-02    4.655565  1.991487E+00 -142.042404  1.000000E+00    0.000000  1.000000E+00    0.000000
  0.809312500  3.391322E-02    4.072225  2.000837E+00 -141.879196  1.000000E+00    0.000000  1.000000E+00    0.000000
  0.809312625  3.394271E-02    3.031823  1.995318E+00 -142.032074  1.000000E+00    0.000000  1.000000E+00    0.000000
  0.809312750  3.273051E-02    2.680288  2.000941E+00 -142.053833  1.000000E+00    0.000000  1.000000E+00    0.000000
  0.809312875  3.389668E-02    3.254847  2.000082E+00 -142.154465  1.000000E+00    0.000000  1.000000E+00    0.000000
  0.809313000  3.395801E-02    3.713664  1.999540E+00 -142.036346  1.000000E+00    0.000000  1.000000E+00    0.000000
  0.809313125  3.369170E-02    3.988418  1.997488E+00 -141.944519  1.000000E+00    0.000000  1.000000E+00    0.000000
  0.809313250  3.253161E-02    2.684768  1.999438E+00 -141.969345  1.000000E+00    0.000000  1.000000E+00    0.000000
  0.809313375  3.421849E-02    3.680825  1.998064E+00 -142.016037  1.000000E+00    0.000000  1.000000E+00    0.000000
  0.809313500  3.309821E-02    3.665422  2.004202E+00 -142.031921  1.000000E+00    0.000000  1.000000E+00    0.000000
  0.809313625  3.473896E-02    2.921839  1.996083E+00 -142.095428  1.000000E+00    0.000000  1.000000E+00    0.000000
  0.809313750  3.336345E-02    3.255613  1.997293E+00 -142.048996  1.000000E+00    0.000000  1.000000E+00    0.000000
  0.809313875  3.302720E-02    3.658259  1.996567E+00 -142.375580  1.000000E+00    0.000000  1.000000E+00    0.000000
  0.809314000  3.391325E-02    1.082134  1.993303E+00 -142.332993  1.000000E+00    0.000000  1.000000E+00    0.000000
  0.809314125  3.302770E-02    2.553938  1.996886E+00 -142.357620  1.000000E+00    0.000000  1.000000E+00    0.000000
  0.809314250  3.401616E-02    1.623566  2.002207E+00 -142.342438  1.000000E+00    0.000000  1.000000E+00    0.000000
  0.809314375  3.415524E-02    1.857078  1.997536E+00 -142.294479  1.000000E+00    0.000000  1.000000E+00    0.000000
  0.809314500  3.451133E-02    2.037946  2.000354E+00 -142.171036  1.000000E+00    0.000000  1.000000E+00    0.000000
  0.809314625  3.318587E-02    3.052033  1.999718E+00 -142.475845  1.000000E+00    0.000000  1.000000E+00    0.000000
  0.809314750  3.245860E-02    0.864832  1.999457E+00 -142.602951  1.000000E+00    0.000000  1.000000E+00    0.000000
  0.809314875  3.253733E-02    0.769070  2.004475E+00 -142.436813  1.000000E+00    0.000000  1.000000E+00    0.000000
  0.809315000  3.396462E-02    3.276344  1.994043E+00 -142.429230  1.000000E+00    0.000000  1.000000E+00    0.000000
  0.809315125  3.322286E-02    1.600277  1.993583E+00 -142.374786  1.000000E+00    0.000000  1.000000E+00    0.000000
  0.809315250  3.389939E-02    0.856364  1.996582E+00 -142.404160  1.000000E+00    0.000000  1.000000E+00    0.000000
  0.809315375  3.390427E-02    1.802132  1.999574E+00 -142.414490  1.000000E+00    0.000000  1.000000E+00    0.000000
  0.809315500  3.335873E-02    1.673869  2.000462E+00 -142.513489  1.000000E+00    0.000000  1.000000E+00    0.000000
  0.809315625  3.339125E-02    1.006316  2.002940E+00 -142.477020  1.000000E+00    0.000000  1.000000E+00    0.000000
  0.809315750  3.410771E-02    0.786005  1.996457E+00 -142.467667  1.000000E+00    0.000000  1.000000E+00    0.000000
  0.809315875  3.304078E-02    3.989972  2.000869E+00 -142.542999  1.000000E+00    0.000000  1.000000E+00    0.000000
  0.809316000  3.427932E-02    2.644971  1.999793E+00 -142.403030  1.000000E+00    0.000000  1.000000E+00    0.000000
  0.809316125  3.365349E-02    0.606419  1.994506E+00 -142.572327  1.000000E+00    0.000000  1.000000E+00    0.000000
  0.809316250  3.294814E-02    3.321359  2.006750E+00 -142.069122  1.000000E+00    0.000000  1.000000E+00    0.000000
  0.809316375  3.426183E-02    4.679860  2.011066E+00 -142.271942  1.000000E+00    0.000000  1.000000E+00    0.000000
  0.809316500  3.276859E-02    3.149317  2.008286E+00 -142.283081  1.000000E+00    0.000000  1.000000E+00    0.000000
  0.809316625  3.305641E-02    3.081859  2.002902E+00 -142.210587  1.000000E+00    0.000000  1.000000E+00    0.000000
  0.809316750  3.415724E-02    2.679100  1.990394E+00 -142.305817  1.000000E+00    0.000000  1.000000E+00    0.000000
  0.809316875  3.298454E-02    3.554163  1.990740E+00 -142.381485  1.000000E+00    0.000000  1.000000E+00    0.000000
  0.809317000  3.304039E-02    3.780352  1.987551E+00 -142.481995  1.000000E+00    0.000000  1.000000E+00    0.000000
  0.809317125  3.393977E-02    4.832872  1.993736E+00 -142.422791  1.000000E+00    0.000000  1.000000E+00    0.000000
  0.809317250  3.346837E-02    4.471532  1.991320E+00 -142.471649  1.000000E+00    0.000000  1.000000E+00    0.000000
  0.809317375  3.263987E-02    2.606674  1.993867E+00 -142.375992  1.000000E+00    0.000000  1.000000E+00    0.000000
  0.809317500  3.435003E-02    4.088664  1.998234E+00 -142.373688  1.000000E+00    0.000000  1.000000E+00    0.000000
  0.809317625  3.314624E-02    4.383101  1.994552E+00 -142.382446  1.000000E+00    0.000000  1.000000E+00    0.000000
  0.809317750  3.341576E-02    1.679561  1.990944E+00 -142.330048  1.000000E+00    0.000000  1.000000E+00    0.000000
  0.809317875  3.345675E-02    3.768765  1.991770E+00 -142.534164  1.000000E+00    0.000000  1.000000E+00    0.000000
  0.809318000  3.369500E-02    5.698344  1.998669E+00 -142.583878  1.000000E+00    0.000000  1.000000E+00    0.000000
  0.809318125  3.334316E-02    3.918903  1.991117E+00 -142.419266  1.000000E+00    0.000000  1.000000E+00    0.000000
  0.809318250  3.307037E-02    2.975070  1.994972E+00 -142.701080  1.000000E+00    0.000000  1.000000E+00    0.000000
  0.809318375  3.338693E-02    3.005539  1.997002E+00 -142.677643  1.000000E+00    0.000000  1.000000E+00    0.000000
  0.809318500  3.455139E-02    3.683813  1.987486E+00 -142.565918  1.000000E+00    0.000000  1.000000E+00    0.000000
  0.809318625  3.357516E-02    5.568842  1.993654E+00 -142.456497  1.000000E+00    0.000000  1.000000E+00    0.000000
  0.809318750  3.365342E-02    3.659443  1.998212E+00 -142.750931  1.000000E+00    0.000000  1.000000E+00    0.000000
  0.809318875  3.256299E-02    1.773210  1.991967E+00 -142.962006  1.000000E+00    0.000000  1.000000E+00    0.000000
  0.809319000  3.414789E-02    2.417423  1.985785E+00 -142.761002  1.000000E+00    0.000000  1.000000E+00    0.000000
  0.809319125  3.278294E-02    2.912363  1.999190E+00 -142.815414  1.000000E+00    0.000000  1.000000E+00    0.000000
