! Anritsu VNA Master:                           Model: MS2034B
! SN:                                  1324090
! /card0/usr/high-freq.s2p
! Existing Calibration Information:
! TYPE:                         Current Settings,       Active Cal Settings
! TIME:             	   07/15/2014 10:40:14 AM,    05/16/2014 07:31:05 AM
! INTERNAL TEMP:    	                   46.3 C,                    49.0 C
! # POINTS:         	                     4001,                       401
! START FREQ:       	          870.999 500 MHz,               500.000 kHz
! STOP FREQ:        	          873.000 500 MHz,                 4.000 GHz
! SOURCE POWER:     	                      Low,                      High
! IFBW:             	                    1 kHz,                    100 Hz
! AVG FACTOR:       	                       1 ,                        1 
! REF PLANE 1:      	                18.7717 m,                      0 mm
! REF PLANE 2:      	                     0 mm,                      0 mm
! CAL TYPE:         	             Response S21,              Response S21
! CAL METHOD:       	                     SOLT,                      SOLT
! CAL LINE TYPE:    	                     Coax,                      Coax
! DUT PORT 1:       	                   SMA(F),                    SMA(F)
! DUT PORT 2:       	                N-Conn(M),                 N-Conn(M)
! CAL STATUS:       	                      OFF,                        --
# GHZ S MA R 50.0
! FREQ.GHZ       S11M         S11A         S21M         S21A         S12M         S12A         S22M         S22A
  0.870999500  5.024227E-02  131.634979  5.091643E+00 -139.175247  1.000000E+00    0.000000  1.000000E+00    0.000000
  0.871000000  4.844278E-02  133.080597  5.115228E+00 -139.239578  1.000000E+00    0.000000  1.000000E+00    0.000000
  0.871000500  4.820158E-02  129.160568  5.092180E+00 -138.963028  1.000000E+00    0.000000  1.000000E+00    0.000000
  0.871001001  4.747853E-02  129.829895  5.078105E+00 -138.997864  1.000000E+00    0.000000  1.000000E+00    0.000000
  0.871001501  5.031875E-02  128.795288  5.082541E+00 -139.113831  1.000000E+00    0.000000  1.000000E+00    0.000000
  0.871002001  5.054483E-02  127.630363  5.068350E+00 -138.723312  1.000000E+00    0.000000  1.000000E+00    0.000000
  0.871002501  4.822094E-02  126.695778  5.056132E+00 -138.816879  1.000000E+00    0.000000  1.000000E+00    0.000000
  0.871003002  4.778679E-02  133.866486  5.071941E+00 -138.953308  1.000000E+00    0.000000  1.000000E+00    0.000000
  0.871003502  5.099541E-02  128.124710  5.069612E+00 -138.831375  1.000000E+00    0.000000  1.000000E+00    0.000000
  0.871004002  4.787569E-02  129.136337  5.059720E+00 -138.717239  1.000000E+00    0.000000  1.000000E+00    0.000000
  0.871004503  4.845832E-02  131.784225  5.065176E+00 -138.990921  1.000000E+00    0.000000  1.000000E+00    0.000000
  0.871005003  4.611114E-02  128.449585  5.048524E+00 -138.777512  1.000000E+00    0.000000  1.000000E+00    0.000000
  0.871005503  4.685969E-02  129.627640  5.076567E+00 -138.670883  1.000000E+00    0.000000  1.000000E+00    0.000000
  0.871006003  4.806671E-02  129.623245  5.071279E+00 -138.592270  1.000000E+00    0.000000  1.000000E+00    0.000000
  0.871006503  4.610908E-02  133.169266  5.084822E+00 -138.968689  1.000000E+00    0.000000  1.000000E+00    0.000000
  0.871007004  5.126807E-02  129.269806  5.082742E+00 -138.978622  1.000000E+00    0.000000  1.000000E+00    0.000000
  0.871007504  4.879479E-02  135.269089  5.064588E+00 -139.011673  1.000000E+00    0.000000  1.000000E+00    0.000000
  0.871008004  4.883456E-02  129.732117  5.069071E+00 -139.026947  1.000000E+00    0.000000  1.000000E+00    0.000000
  0.871008504  4.568636E-02  128.852249  5.080439E+00 -139.201080  1.000000E+00    0.000000  1.000000E+00    0.000000
  0.871009005  4.548898E-02  128.082184  5.078699E+00 -138.949249  1.000000E+00    0.000000  1.000000E+00    0.000000
  0.871009505  4.636675E-02  129.029510  5.075022E+00 -138.968033  1.000000E+00    0.000000  1.000000E+00    0.000000
  0.871010005  4.699196E-02  134.743423  5.089610E+00 -138.936935  1.000000E+00    0.000000  1.000000E+00    0.000000
  0.871010505  4.679786E-02  131.825302  5.063942E+00 -138.945786  1.000000E+00    0.000000  1.000000E+00    0.000000
  0.871011006  4.301378E-02  136.511627  5.087645E+00 -138.486389  1.000000E+00    0.000000  1.000000E+00    0.000000
  0.871011506  4.918090E-02  130.143616  5.098454E+00 -138.979401  1.000000E+00    0.000000  1.000000E+00    0.000000
  0.871012006  5.065284E-02  132.261032  5.098307E+00 -138.909103  1.000000E+00    0.000000  1.000000E+00    0.000000
  0.871012506  4.865971E-02  131.576294  5.085367E+00 -138.992691  1.000000E+00    0.000000  1.000000E+00    0.000000
  0.871013007  4.804746E-02  132.709991  5.085177E+00 -138.979187  1.000000E+00    0.000000  1.000000E+00    0.000000
  0.871013507  4.960493E-02  130.551163  5.082372E+00 -139.052353  1.000000E+00    0.000000  1.000000E+00    0.000000
  0.871014007  4.849763E-02  127.921738  5.065849E+00 -138.791748  1.000000E+00    0.000000  1.000000E+00    0.000000
  0.871014507  4.562176E-02  133.183731  5.083427E+00 -138.912094  1.000000E+00    0.000000  1.000000E+00    0.000000
  0.871015008  4.680626E-02  129.309982  5.054770E+00 -138.742477  1.000000E+00    0.000000  1.000000E+00    0.000000
  0.871015508  4.824153E-02  131.088516  5.065489E+00 -138.873383  1.000000E+00    0.000000  1.000000E+00    0.000000
  0.871016008  4.743187E-02  130.710617  5.058840E+00 -138.642288  1.000000E+00    0.000000  1.000000E+00    0.000000
  0.871016508  4.726126E-02  132.730545  5.099950E+00 -139.065445  1.000000E+00    0.000000  1.000000E+00    0.000000
  0.871017009  4.892424E-02  124.872154  5.075743E+00 -138.869553  1.000000E+00    0.000000  1.000000E+00    0.000000
  0.871017509  4.989410E-02  131.863281  5.076755E+00 -139.104599  1.000000E+00    0.000000  1.000000E+00    0.000000
  0.871018009  4.788975E-02  130.980026  5.078218E+00 -139.069199  1.000000E+00    0.000000  1.000000E+00    0.000000
  0.871018509  5.015961E-02  129.169281  5.081154E+00 -139.249741  1.000000E+00    0.000000  1.000000E+00    0.000000
  0.871019010  4.844815E-02  125.251999  5.089051E+00 -138.681900  1.000000E+00    0.000000  1.000000E+00    0.000000
  0.871019510  5.040314E-02  129.493744  5.075668E+00 -139.006104  1.000000E+00    0.000000  1.000000E+00    0.000000
  0.871020010  4.827357E-02  128.926208  5.063073E+00 -138.862717  1.000000E+00    0.000000  1.000000E+00    0.000000
  0.871020511  4.864941E-02  129.822144  5.059906E+00 -138.963943  1.000000E+00    0.000000  1.000000E+00    0.000000
  0.871021011  4.908003E-02  130.147934  5.061160E+00 -138.865311  1.000000E+00    0.000000  1.000000E+00    0.000000
  0.871021511  5.072158E-02  131.997940  5.081306E+00 -138.965286  1.000000E+00    0.000000  1.000000E+00    0.000000
  0.871022011  4.953664E-02  133.100662  5.058819E+00 -139.012970  1.000000E+00    0.000000  1.000000E+00    0.000000
  0.871022512  4.836984E-02  133.801071  5.092107E+00 -138.933807  1.000000E+00    0.000000  1.000000E+00    0.000000
  0.871023012  4.822179E-02  127.225143  5.075840E+00 -139.201614  1.000000E+00    0.000000  1.000000E+00    0.000000
  0.871023512  4.873250E-02  130.865387  5.079975E+00 -139.120392  1.000000E+00    0.000000  1.000000E+00    0.000000
  0.871024012  4.977831E-02  130.665298  5.079273E+00 -138.870926  1.000000E+00    0.000000  1.000000E+00    0.000000
  0.871024513  5.043434E-02  131.792496  5.077417E+00 -138.638290  1.000000E+00    0.000000  1.000000E+00    0.000000
  0.871025013  4.957163E-02  131.371033  5.096536E+00 -139.223190  1.000000E+00    0.000000  1.000000E+00    0.000000
  0.871025513  4.652401E-02  129.933395  5.082181E+00 -139.058105  1.000000E+00    0.000000  1.000000E+00    0.000000
  0.871026013  5.157520E-02  130.639359  5.072869E+00 -139.042664  1.000000E+00    0.000000  1.000000E+00    0.000000
  0.871026514  4.767032E-02  133.393082  5.083318E+00 -138.837418  1.000000E+00    0.000000  1.000000E+00    0.000000
  0.871027014  4.949667E-02  132.300812  5.096261E+00 -139.306717  1.000000E+00    0.000000  1.000000E+00    0.000000
  0.871027514  4.900329E-02  127.533440  5.091055E+00 -139.264053  1.000000E+00    0.000000  1.000000E+00    0.000000
  0.871028014  4.964194E-02  131.953674  5.071213E+00 -139.285095  1.000000E+00    0.000000  1.000000E+00    0.000000
  0.871028515  5.064344E-02  134.741226  5.098059E+00 -138.872818  1.000000E+00    0.000000  1.000000E+00    0.000000
  0.871029015  4.726126E-02  135.445343  5.092816E+00 -138.716873  1.000000E+00    0.000000  1.000000E+00    0.000000
  0.871029515  4.821682E-02  131.485031  5.075656E+00 -139.085663  1.000000E+00    0.000000  1.000000E+00    0.000000
  0.871030015  4.646714E-02  134.254425  5.071951E+00 -138.793106  1.000000E+00    0.000000  1.000000E+00    0.000000
  0.871030516  5.107300E-02  132.806564  5.069715E+00 -139.047211  1.000000E+00    0.000000  1.000000E+00    0.000000
  0.871031016  4.954092E-02  129.447418  5.078876E+00 -138.862534  1.000000E+00    0.000000  1.000000E+00    0.000000
  0.871031516  4.813666E-02  129.661270  5.064660E+00 -138.739655  1.000000E+00    0.000000  1.000000E+00    0.000000
  0.871032016  4.792142E-02  132.109512  5.058485E+00 -139.172134  1.000000E+00    0.000000  1.000000E+00    0.000000
  0.871032517  4.924731E-02  131.903214  5.065972E+00 -138.980911  1.000000E+00    0.000000  1.000000E+00    0.000000
  0.871033017  4.886251E-02  127.564735  5.067730E+00 -138.965988  1.000000E+00    0.000000  1.000000E+00    0.000000
  0.871033517  4.660220E-02  131.401169  5.069155E+00 -138.892609  1.000000E+00    0.000000  1.000000E+00    0.000000
  0.871034017  4.732096E-02  131.066544  5.073569E+00 -138.840149  1.000000E+00    0.000000  1.000000E+00    0.000000
  0.871034518  4.766582E-02  130.712509  5.092837E+00 -138.877823  1.000000E+00    0.000000  1.000000E+00    0.000000
  0.871035018  4.754850E-02  127.555313  5.072384E+00 -138.962021  1.000000E+00    0.000000  1.000000E+00    0.000000
  0.871035518  4.895185E-02  128.663147  5.061980E+00 -139.244125  1.000000E+00    0.000000  1.000000E+00    0.000000
  0.871036018  4.850972E-02  129.699005  5.070408E+00 -138.873474  1.000000E+00    0.000000  1.000000E+00    0.000000
  0.871036519  4.942515E-02  129.018707  5.077041E+00 -138.777695  1.000000E+00    0.000000  1.000000E+00    0.000000
  0.871037019  4.795960E-02  133.770355  5.063432E+00 -139.043472  1.000000E+00    0.000000  1.000000E+00    0.000000
  0.871037519  4.550708E-02  127.275848  5.074408E+00 -138.813034  1.000000E+00    0.000000  1.000000E+00    0.000000
  0.871038019  4.866181E-02  133.804001  5.069513E+00 -138.754089  1.000000E+00    0.000000  1.000000E+00    0.000000
  0.871038520  4.422006E-02  129.416565  5.067255E+00 -138.875961  1.000000E+00    0.000000  1.000000E+00    0.000000
  0.871039020  4.655164E-02  128.392700  5.072735E+00 -139.136856  1.000000E+00    0.000000  1.000000E+00    0.000000
  0.871039520  4.578146E-02  134.629196  5.084737E+00 -139.011169  1.000000E+00    0.000000  1.000000E+00    0.000000
  0.871040020  4.857162E-02  134.715912  5.087039E+00 -138.779922  1.000000E+00    0.000000  1.000000E+00    0.000000
  0.871040521  5.040097E-02  132.835953  5.072421E+00 -138.994583  1.000000E+00    0.000000  1.000000E+00    0.000000
  0.871041021  4.906981E-02  132.419159  5.065699E+00 -138.793869  1.000000E+00    0.000000  1.000000E+00    0.000000
  0.871041521  4.751766E-02  128.545700  5.065835E+00 -138.944626  1.000000E+00    0.000000  1.000000E+00    0.000000
  0.871042021  4.758215E-02  132.090683  5.051872E+00 -139.222870  1.000000E+00    0.000000  1.000000E+00    0.000000
  0.871042522  4.818907E-02  133.497269  5.056705E+00 -139.042435  1.000000E+00    0.000000  1.000000E+00    0.000000
  0.871043022  4.688853E-02  130.564529  5.077346E+00 -138.907516  1.000000E+00    0.000000  1.000000E+00    0.000000
  0.871043522  4.323931E-02  128.882492  5.047973E+00 -138.955139  1.000000E+00    0.000000  1.000000E+00    0.000000
  0.871044022  4.335452E-02  129.483612  5.096804E+00 -139.156586  1.000000E+00    0.000000  1.000000E+00    0.000000
  0.871044522  4.701950E-02  132.631348  5.103570E+00 -138.720093  1.000000E+00    0.000000  1.000000E+00    0.000000
  0.871045023  4.846342E-02  133.210556  5.066423E+00 -139.309189  1.000000E+00    0.000000  1.000000E+00    0.000000
  0.871045523  4.445199E-02  131.018738  5.086298E+00 -139.043152  1.000000E+00    0.000000  1.000000E+00    0.000000
  0.871046023  4.602407E-02  132.634369  5.065190E+00 -138.785675  1.000000E+00    0.000000  1.000000E+00    0.000000
  0.871046524  4.689056E-02  134.016617  5.043248E+00 -138.956604  1.000000E+00    0.000000  1.000000E+00    0.000000
  0.871047024  4.498264E-02  129.595840  5.059023E+00 -138.837234  1.000000E+00    0.000000  1.000000E+00    0.000000
  0.871047524  5.110272E-02  131.716248  5.070381E+00 -139.138931  1.000000E+00    0.000000  1.000000E+00    0.000000
  0.871048024  4.906956E-02  130.644150  5.070045E+00 -138.924927  1.000000E+00    0.000000  1.000000E+00    0.000000
  0.871048525  4.662276E-02  130.494568  5.075137E+00 -138.845291  1.000000E+00    0.000000  1.000000E+00    0.000000
  0.871049025  4.727435E-02  130.393890  5.095009E+00 -138.890045  1.000000E+00    0.000000  1.000000E+00    0.000000
  0.871049525  4.610128E-02  133.678070  5.062201E+00 -139.480011  1.000000E+00    0.000000  1.000000E+00    0.000000
  0.871050025  4.590420E-02  129.980682  5.084927E+00 -139.094330  1.000000E+00    0.000000  1.000000E+00    0.000000
  0.871050525  4.838472E-02  133.114899  5.066425E+00 -138.901672  1.000000E+00    0.000000  1.000000E+00    0.000000
  0.871051026  4.822567E-02  129.970444  5.093068E+00 -139.173035  1.000000E+00    0.000000  1.000000E+00    0.000000
  0.871051526  5.147521E-02  125.246902  5.052244E+00 -139.061279  1.000000E+00    0.000000  1.000000E+00    0.000000
  0.871052026  4.807701E-02  130.906326  5.076921E+00 -139.279785  1.000000E+00    0.000000  1.000000E+00    0.000000
  0.871052526  4.876003E-02  132.686752  5.066823E+00 -139.075546  1.000000E+00    0.000000  1.000000E+00    0.000000
  0.871053027  4.629871E-02  128.952682  5.053511E+00 -138.842239  1.000000E+00    0.000000  1.000000E+00    0.000000
  0.871053527  4.633552E-02  131.875305  5.069507E+00 -138.979416  1.000000E+00    0.000000  1.000000E+00    0.000000
  0.871054027  4.793325E-02  139.113846  5.099419E+00 -139.334564  1.000000E+00    0.000000  1.000000E+00    0.000000
  0.871054527  4.847091E-02  129.882675  5.077250E+00 -139.247986  1.000000E+00    0.000000  1.000000E+00    0.000000
  0.871055028  4.570180E-02  132.342590  5.079526E+00 -139.170914  1.000000E+00    0.000000  1.000000E+00    0.000000
  0.871055528  4.901553E-02  133.155380  5.078716E+00 -139.080795  1.000000E+00    0.000000  1.000000E+00    0.000000
  0.871056028  5.101277E-02  132.689606  5.073596E+00 -139.174667  1.000000E+00    0.000000  1.000000E+00    0.000000
  0.871056529  4.685169E-02  132.495453  5.067501E+00 -139.190445  1.000000E+00    0.000000  1.000000E+00    0.000000
  0.871057029  4.679681E-02  130.044418  5.063431E+00 -138.976898  1.000000E+00    0.000000  1.000000E+00    0.000000
  0.871057529  5.178472E-02  128.894180  5.082094E+00 -138.948044  1.000000E+00    0.000000  1.000000E+00    0.000000
  0.871058029  4.647788E-02  127.655022  5.076670E+00 -139.110199  1.000000E+00    0.000000  1.000000E+00    0.000000
  0.871058529  4.822684E-02  128.239944  5.071966E+00 -139.001175  1.000000E+00    0.000000  1.000000E+00    0.000000
  0.871059030  4.523413E-02  128.826202  5.030865E+00 -138.890717  1.000000E+00    0.000000  1.000000E+00    0.000000
  0.871059530  4.718065E-02  129.961594  5.050559E+00 -139.138962  1.000000E+00    0.000000  1.000000E+00    0.000000
  0.871060030  4.715105E-02  133.662979  5.054387E+00 -139.081894  1.000000E+00    0.000000  1.000000E+00    0.000000
  0.871060530  4.977556E-02  131.456543  5.080386E+00 -139.154678  1.000000E+00    0.000000  1.000000E+00    0.000000
  0.871061031  4.782887E-02  133.083405  5.058459E+00 -139.131607  1.000000E+00    0.000000  1.000000E+00    0.000000
  0.871061531  4.500077E-02  131.256317  5.041926E+00 -138.910370  1.000000E+00    0.000000  1.000000E+00    0.000000
  0.871062031  4.543513E-02  134.315704  5.060561E+00 -139.037750  1.000000E+00    0.000000  1.000000E+00    0.000000
  0.871062531  4.781757E-02  131.822739  5.070531E+00 -138.973160  1.000000E+00    0.000000  1.000000E+00    0.000000
  0.871063032  4.821733E-02  134.271576  5.069582E+00 -139.230133  1.000000E+00    0.000000  1.000000E+00    0.000000
  0.871063532  4.840628E-02  129.582138  5.073781E+00 -139.128555  1.000000E+00    0.000000  1.000000E+00    0.000000
  0.871064032  4.790702E-02  136.111664  5.091722E+00 -138.919586  1.000000E+00    0.000000  1.000000E+00    0.000000
  0.871064532  4.774116E-02  126.658218  5.069463E+00 -138.994263  1.000000E+00    0.000000  1.000000E+00    0.000000
  0.871065033  4.752647E-02  130.254761  5.035240E+00 -138.956940  1.000000E+00    0.000000  1.000000E+00    0.000000
  0.871065533  4.549742E-02  131.642059  5.060939E+00 -138.998123  1.000000E+00    0.000000  1.000000E+00    0.000000
  0.871066033  4.892335E-02  134.327469  5.045542E+00 -138.964386  1.000000E+00    0.000000  1.000000E+00    0.000000
  0.871066533  4.691172E-02  132.885025  5.086961E+00 -139.246475  1.000000E+00    0.000000  1.000000E+00    0.000000
  0.871067034  4.862005E-02  131.412537  5.045286E+00 -139.260925  1.000000E+00    0.000000  1.000000E+00    0.000000
  0.871067534  4.418451E-02  126.042160  5.065731E+00 -139.191971  1.000000E+00    0.000000  1.000000E+00    0.000000
  0.871068034  5.095084E-02  128.500076  5.073028E+00 -139.254013  1.000000E+00    0.000000  1.000000E+00    0.000000
  0.871068534  4.735727E-02  133.518188  5.061460E+00 -139.214539  1.000000E+00    0.000000  1.000000E+00    0.000000
  0.871069035  4.853247E-02  129.043335  5.068716E+00 -139.016571  1.000000E+00    0.000000  1.000000E+00    0.000000
  0.871069535  4.465608E-02  132.995850  5.039689E+00 -139.017822  1.000000E+00    0.000000  1.000000E+00    0.000000
  0.871070035  4.753021E-02  131.586380  5.080034E+00 -138.464935  1.000000E+00    0.000000  1.000000E+00    0.000000
  0.871070535  4.861997E-02  133.142532  5.059419E+00 -139.086182  1.000000E+00    0.000000  1.000000E+00    0.000000
  0.871071036  4.847911E-02  134.540359  5.062119E+00 -139.029510  1.000000E+00    0.000000  1.000000E+00    0.000000
  0.871071536  4.946578E-02  132.587891  5.063868E+00 -139.173462  1.000000E+00    0.000000  1.000000E+00    0.000000
  0.871072036  4.813374E-02  131.634628  5.078000E+00 -139.275665  1.000000E+00    0.000000  1.000000E+00    0.000000
  0.871072537  4.722593E-02  134.104507  5.051418E+00 -139.260818  1.000000E+00    0.000000  1.000000E+00    0.000000
  0.871073037  4.975382E-02  133.835968  5.064868E+00 -139.033905  1.000000E+00    0.000000  1.000000E+00    0.000000
  0.871073537  4.927887E-02  136.259781  5.054170E+00 -138.980972  1.000000E+00    0.000000  1.000000E+00    0.000000
  0.871074037  4.813433E-02  133.552216  5.057791E+00 -138.915588  1.000000E+00    0.000000  1.000000E+00    0.000000
  0.871074538  4.572739E-02  130.999237  5.048782E+00 -138.771774  1.000000E+00    0.000000  1.000000E+00    0.000000
  0.871075038  4.871273E-02  131.264038  5.069488E+00 -138.860626  1.000000E+00    0.000000  1.000000E+00    0.000000
  0.871075538  4.475781E-02  130.107773  5.052487E+00 -139.085281  1.000000E+00    0.000000  1.000000E+00    0.000000
  0.871076038  4.815140E-02  131.609909  5.056623E+00 -139.062164  1.000000E+00    0.000000  1.000000E+00    0.000000
